
T3F78 000:267 SEGGER J-Link V6.00e Log File (0001ms, 0033ms total)
T3F78 000:267 DLL Compiled: Aug  4 2016 09:37:38 (0002ms, 0034ms total)
T3F78 000:267 Logging started @ 2019-10-07 21:39 (0002ms, 0034ms total)
T3F78 000:269 JLINK_SetWarnOutHandler(...) (0000ms, 0034ms total)
T3F78 000:269 JLINK_OpenEx(...)
Firmware: J-Link OB-STM32F072-CortexM compiled Sep 26 2016 10:03:56
Hardware: V1.00
Feature(s): GDB, RDI, FlashBP, FlashDL, JFlash, RDDI  returns O.K. (0026ms, 0060ms total)
T3F78 000:296 JLINK_SetErrorOutHandler(...) (0000ms, 0060ms total)
T3F78 000:296 JLINK_ExecCommand("ProjectFile = "E:\RM资料\RM程序\步兵比赛程序―修改\四号步兵_实验用\四号步兵_含限位-正常\底盘\MDK-ARM\JLinkSettings.ini"", ...).   returns 0x00 (0227ms, 0287ms total)
T3F78 000:546 JLINK_ExecCommand("Device = STM32F427II", ...). Device "STM32F427II" selected.  returns 0x00 (0031ms, 0318ms total)
T3F78 000:577 JLINK_ExecCommand("DisableConnectionTimeout", ...).   returns 0x01 (0000ms, 0318ms total)
T3F78 000:577 JLINK_GetHardwareVersion()  returns 0x2710 (0001ms, 0319ms total)
T3F78 000:578 JLINK_GetDLLVersion()  returns 60005 (0000ms, 0319ms total)
T3F78 000:578 JLINK_GetFirmwareString(...) (0000ms, 0319ms total)
T3F78 000:667 JLINK_GetDLLVersion()  returns 60005 (0000ms, 0319ms total)
T3F78 000:667 JLINK_GetCompileDateTime() (0000ms, 0319ms total)
T3F78 000:700 JLINK_GetFirmwareString(...) (0000ms, 0319ms total)
T3F78 000:724 JLINK_GetHardwareVersion()  returns 0x2710 (0001ms, 0320ms total)
T3F78 000:809 JLINK_TIF_Select(JLINKARM_TIF_SWD)  returns 0x00 (0002ms, 0322ms total)
T3F78 000:811 JLINK_SetSpeed(5000) (0000ms, 0322ms total)
T3F78 000:812 JLINK_GetId() >0x108 TIF>Found SWD-DP with ID 0x2BA01477 >0x0D TIF> >0x28 TIF> >0x0D TIF> >0x28 TIF> >0x0D TIF> >0x28 TIF> >0x0D TIF> >0x28 TIF> >0x0D TIF> >0x21 TIF> >0x0D TIF> >0x28 TIF> >0x0D TIF> >0x28 TIF> >0x0D TIF> >0x28 TIF> >0x0D TIF> >0x21 TIF> >0x0D TIF> >0x21 TIF> >0x0D TIF> >0x28 TIF> >0x0D TIF> >0x21 TIF> >0x0D TIF> >0x21 TIF> >0x0D TIF> >0x28 TIF> >0x0D TIF> >0x28 TIF> >0x0D TIF> >0x28 TIF> >0x0D TIF> >0x21 TIF> >0x0D TIF> >0x21 TIF> >0x0D TIF> >0x28 TIF> >0x0D TIF>
 >0x28 TIF> >0x0D TIF> >0x28 TIF> >0x0D TIF> >0x21 TIF> >0x0D TIF> >0x21 TIF> >0x0D TIF> >0x28 TIF> >0x0D TIF> >0x21 TIF> >0x0D TIF> >0x21 TIF> >0x0D TIF> >0x28 TIF> >0x0D TIF> >0x21 TIF> >0x0D TIF> >0x21 TIF> >0x0D TIF> >0x28 TIF> >0x0D TIF> >0x21 TIF> >0x0D TIF> >0x21 TIF> >0x108 TIF>Found SWD-DP with ID 0x2BA01477 >0x0D TIF> >0x28 TIF> >0x0D TIF> >0x28 TIF> >0x0D TIF> >0x28 TIF> >0x0D TIF> >0x28 TIF> >0x0D TIF> >0x21 TIF> >0x0D TIF> >0x28 TIF> >0x0D TIF> >0x28 TIF> >0x0D TIF> >0x21 TIF> >0x0D TIF>
 >0x21 TIF> >0x0D TIF> >0x21 TIF>AP-IDR: 0x24770011, Type: AHB-AP >0x0D TIF> >0x28 TIF> >0x0D TIF> >0x28 TIF> >0x0D TIF> >0x28 TIF> >0x0D TIF> >0x21 TIF> >0x0D TIF> >0x21 TIF> >0x0D TIF> >0x28 TIF> >0x0D TIF> >0x21 TIF> >0x0D TIF> >0x21 TIF>Found Cortex-M4 r0p1, Little endian. -- CPU_ReadMem(4 bytes @ 0xE000EDF0) -- CPU_WriteMem(4 bytes @ 0xE000EDF0) -- CPU_ReadMem(4 bytes @ 0xE0002000)FPUnit: 6 code (BP) slots and 2 literal slots -- CPU_ReadMem(4 bytes @ 0xE000EDFC) -- CPU_WriteMem(4 bytes @ 0xE000EDFC)
 -- CPU_ReadMem(4 bytes @ 0xE0001000) -- CPU_WriteMem(4 bytes @ 0xE0001000) -- CPU_ReadMem(4 bytes @ 0xE000ED88) -- CPU_WriteMem(4 bytes @ 0xE000ED88) -- CPU_ReadMem(4 bytes @ 0xE000ED88) -- CPU_WriteMem(4 bytes @ 0xE000ED88)CoreSight components:ROMTbl 0 @ E00FF000 -- CPU_ReadMem(16 bytes @ 0xE00FF000) -- CPU_ReadMem(16 bytes @ 0xE000EFF0) -- CPU_ReadMem(16 bytes @ 0xE000EFE0)ROMTbl 0 [0]: FFF0F000, CID: B105E00D, PID: 000BB00C SCS -- CPU_ReadMem(16 bytes @ 0xE0001FF0)
 -- CPU_ReadMem(16 bytes @ 0xE0001FE0)ROMTbl 0 [1]: FFF02000, CID: B105E00D, PID: 003BB002 DWT -- CPU_ReadMem(16 bytes @ 0xE0002FF0) -- CPU_ReadMem(16 bytes @ 0xE0002FE0)ROMTbl 0 [2]: FFF03000, CID: B105E00D, PID: 002BB003 FPB -- CPU_ReadMem(16 bytes @ 0xE0000FF0) -- CPU_ReadMem(16 bytes @ 0xE0000FE0)ROMTbl 0 [3]: FFF01000, CID: B105E00D, PID: 003BB001 ITM -- CPU_ReadMem(16 bytes @ 0xE00FF010) -- CPU_ReadMem(16 bytes @ 0xE0040FF0) -- CPU_ReadMem(16 bytes @ 0xE0040FE0)
ROMTbl 0 [4]: FFF41000, CID: B105900D, PID: 000BB9A1 TPIU -- CPU_ReadMem(16 bytes @ 0xE0041FF0) -- CPU_ReadMem(16 bytes @ 0xE0041FE0)ROMTbl 0 [5]: FFF42000, CID: B105900D, PID: 000BB925 ETM >0x0D TIF> >0x21 TIF>  returns 0x2BA01477 (0401ms, 0723ms total)
T3F78 001:213 JLINK_GetDLLVersion()  returns 60005 (0000ms, 0723ms total)
T3F78 001:213 JLINK_CORE_GetFound()  returns 0xE0000FF (0000ms, 0723ms total)
T3F78 001:213 JLINK_GetDebugInfo(0x100) -- Value=0xE00FF000  returns 0x00 (0001ms, 0724ms total)
T3F78 001:238 JLINK_GetDebugInfo(0x100) -- Value=0xE00FF000  returns 0x00 (0000ms, 0724ms total)
T3F78 001:238 JLINK_GetDebugInfo(0x101) -- Value=0xE0041000  returns 0x00 (0001ms, 0725ms total)
T3F78 001:239 JLINK_GetDebugInfo(0x102) -- Value=0x00000000  returns 0x00 (0000ms, 0725ms total)
T3F78 001:239 JLINK_GetDebugInfo(0x103) -- Value=0xE0040000  returns 0x00 (0001ms, 0726ms total)
T3F78 001:240 JLINK_GetDebugInfo(0x104) -- Value=0xE0000000  returns 0x00 (0000ms, 0726ms total)
T3F78 001:240 JLINK_GetDebugInfo(0x105) -- Value=0xE0001000  returns 0x00 (0000ms, 0726ms total)
T3F78 001:240 JLINK_GetDebugInfo(0x106) -- Value=0xE0002000  returns 0x00 (0000ms, 0726ms total)
T3F78 001:240 JLINK_GetDebugInfo(0x107) -- Value=0xE000E000  returns 0x00 (0000ms, 0726ms total)
T3F78 001:241 JLINK_GetDebugInfo(0x10C) -- Value=0xE000EDF0  returns 0x00 (0000ms, 0727ms total)
T3F78 001:241 JLINK_ReadMemU32(0xE000EF40, 0x0001 Items, ...) -- CPU is running -- CPU_ReadMem(4 bytes @ 0xE000EF40) - Data: 21 00 11 10  returns 0x01 (0001ms, 0728ms total)
T3F78 001:242 JLINK_ReadMemU32(0xE000EF44, 0x0001 Items, ...) -- CPU is running -- CPU_ReadMem(4 bytes @ 0xE000EF44) - Data: 11 00 00 11  returns 0x01 (0001ms, 0729ms total)
T3F78 001:243 JLINK_ReadMemU32(0xE000ED00, 0x0001 Items, ...) -- CPU is running -- CPU_ReadMem(4 bytes @ 0xE000ED00) - Data: 41 C2 0F 41  returns 0x01 (0001ms, 0730ms total)
T3F78 001:244 JLINK_SetResetType(JLINKARM_RESET_TYPE_NORMAL)  returns JLINKARM_RESET_TYPE_NORMAL (0001ms, 0731ms total)
T3F78 001:245 JLINK_Reset() -- CPU is running -- CPU_WriteMem(4 bytes @ 0xE000EDF0) -- CPU is running -- CPU_WriteMem(4 bytes @ 0xE000EDFC) >0x35 TIF> -- CPU is running -- CPU_WriteMem(4 bytes @ 0xE000ED0C) -- CPU is running -- CPU_ReadMem(4 bytes @ 0xE000EDF0) -- CPU is running -- CPU_ReadMem(4 bytes @ 0xE000EDF0) -- CPU is running -- CPU_WriteMem(4 bytes @ 0xE000EDF0) -- CPU is running -- CPU_WriteMem(4 bytes @ 0xE000EDFC) -- CPU is running -- CPU_ReadMem(4 bytes @ 0xE000EDF0)
 -- CPU_WriteMem(4 bytes @ 0xE0002000) -- CPU_ReadMem(4 bytes @ 0xE000EDFC) -- CPU_ReadMem(4 bytes @ 0xE0001000) (0024ms, 0755ms total)
T3F78 001:269 JLINK_Halt()  returns 0x00 (0001ms, 0756ms total)
T3F78 001:270 JLINK_IsHalted()  returns TRUE (0000ms, 0756ms total)
T3F78 001:270 JLINK_ReadMemU32(0xE000EDF0, 0x0001 Items, ...) -- CPU_ReadMem(4 bytes @ 0xE000EDF0) - Data: 03 00 03 00  returns 0x01 (0001ms, 0757ms total)
T3F78 001:271 JLINK_WriteU32(0xE000EDF0, 0xA05F0003) -- CPU_WriteMem(4 bytes @ 0xE000EDF0)  returns 0x00 (0001ms, 0758ms total)
T3F78 001:272 JLINK_WriteU32(0xE000EDFC, 0x01000000) -- CPU_WriteMem(4 bytes @ 0xE000EDFC)  returns 0x00 (0001ms, 0759ms total)
T3F78 001:403 JLINK_GetHWStatus(...)  returns 0x00 (0001ms, 0760ms total)
T3F78 001:484 JLINK_GetNumBPUnits(Type = 0xFFFFFF00)  returns 0x06 (0000ms, 0760ms total)
T3F78 001:484 JLINK_GetNumBPUnits(Type = 0xF0)  returns 0x2000 (0001ms, 0761ms total)
T3F78 001:485 JLINK_GetNumWPUnits()  returns 0x04 (0000ms, 0761ms total)
T3F78 001:555 JLINK_GetSpeed()  returns 0x7D0 (0000ms, 0761ms total)
T3F78 001:612 JLINK_ReadMemU32(0xE000E004, 0x0001 Items, ...) -- CPU_ReadMem(4 bytes @ 0xE000E004) - Data: 02 00 00 00  returns 0x01 (0001ms, 0762ms total)
T3F78 001:613 JLINK_ReadMemU32(0xE000E004, 0x0001 Items, ...) -- CPU_ReadMem(4 bytes @ 0xE000E004) - Data: 02 00 00 00  returns 0x01 (0001ms, 0763ms total)
T3F78 001:614 JLINK_WriteMem(0xE0001000, 0x001C Bytes, ...) - Data: 01 00 00 00 00 00 00 00 00 00 00 00 00 00 00 00 ... -- CPU_WriteMem(28 bytes @ 0xE0001000)  returns 0x1C (0003ms, 0766ms total)
T3F78 001:617 JLINK_ReadMem (0xE0001000, 0x001C Bytes, ...) -- CPU_ReadMem(28 bytes @ 0xE0001000) - Data: 01 00 00 40 00 00 00 00 00 00 00 00 00 00 00 00 ...  returns 0x00 (0002ms, 0768ms total)
T3F78 001:619 JLINK_Halt()  returns 0x00 (0000ms, 0768ms total)
T3F78 001:619 JLINK_IsHalted()  returns TRUE (0000ms, 0768ms total)
T3F78 001:643 JLINK_WriteMem(0x20000000, 0x0198 Bytes, ...) - Data: 00 BE 0A E0 0D 78 2D 06 68 40 08 24 40 00 00 D3 ... -- CPU_WriteMem(408 bytes @ 0x20000000)  returns 0x198 (0007ms, 0775ms total)
T3F78 001:650 JLINK_WriteReg(R0, 0x08000000)  returns 0x00 (0000ms, 0775ms total)
T3F78 001:650 JLINK_WriteReg(R1, 0x00B71B00)  returns 0x00 (0000ms, 0775ms total)
T3F78 001:650 JLINK_WriteReg(R2, 0x00000001)  returns 0x00 (0001ms, 0776ms total)
T3F78 001:651 JLINK_WriteReg(R3, 0x00000000)  returns 0x00 (0000ms, 0776ms total)
T3F78 001:651 JLINK_WriteReg(R4, 0x00000000)  returns 0x00 (0000ms, 0776ms total)
T3F78 001:651 JLINK_WriteReg(R5, 0x00000000)  returns 0x00 (0000ms, 0776ms total)
T3F78 001:651 JLINK_WriteReg(R6, 0x00000000)  returns 0x00 (0000ms, 0776ms total)
T3F78 001:651 JLINK_WriteReg(R7, 0x00000000)  returns 0x00 (0001ms, 0777ms total)
T3F78 001:652 JLINK_WriteReg(R8, 0x00000000)  returns 0x00 (0000ms, 0777ms total)
T3F78 001:652 JLINK_WriteReg(R9, 0x20000194)  returns 0x00 (0000ms, 0777ms total)
T3F78 001:652 JLINK_WriteReg(R10, 0x00000000)  returns 0x00 (0000ms, 0777ms total)
T3F78 001:652 JLINK_WriteReg(R11, 0x00000000)  returns 0x00 (0001ms, 0778ms total)
T3F78 001:653 JLINK_WriteReg(R12, 0x00000000)  returns 0x00 (0000ms, 0778ms total)
T3F78 001:653 JLINK_WriteReg(R13 (SP), 0x20001000)  returns 0x00 (0000ms, 0778ms total)
T3F78 001:653 JLINK_WriteReg(R14, 0x20000001)  returns 0x00 (0000ms, 0778ms total)
T3F78 001:653 JLINK_WriteReg(R15 (PC), 0x2000005E)  returns 0x00 (0001ms, 0779ms total)
T3F78 001:654 JLINK_WriteReg(XPSR, 0x01000000)  returns 0x00 (0000ms, 0779ms total)
T3F78 001:654 JLINK_WriteReg(MSP, 0x20001000)  returns 0x00 (0000ms, 0779ms total)
T3F78 001:654 JLINK_WriteReg(PSP, 0x20001000)  returns 0x00 (0000ms, 0779ms total)
T3F78 001:654 JLINK_WriteReg(CFBP, 0x00000000)  returns 0x00 (0001ms, 0780ms total)
T3F78 001:655 JLINK_SetBPEx(Addr = 0x20000000, Type = 0xFFFFFFF2) -- CPU_ReadMem(2 bytes @ 0x20000000)  returns 0x00000001 (0001ms, 0781ms total)
T3F78 001:656 JLINK_Go() -- CPU_WriteMem(2 bytes @ 0x20000000) -- CPU_ReadMem(4 bytes @ 0xE0001000) -- CPU_WriteMem(4 bytes @ 0xE0002008) -- CPU_WriteMem(4 bytes @ 0xE000200C) -- CPU_WriteMem(4 bytes @ 0xE0002010) -- CPU_WriteMem(4 bytes @ 0xE0002014) -- CPU_WriteMem(4 bytes @ 0xE0002018) -- CPU_WriteMem(4 bytes @ 0xE000201C) -- CPU_WriteMem(4 bytes @ 0xE0001004) (0010ms, 0791ms total)
T3F78 001:666 JLINK_IsHalted() -- CPU_ReadMem(2 bytes @ 0x20000000)  returns TRUE (0008ms, 0799ms total)
T3F78 001:674 JLINK_ReadReg(R15 (PC))  returns 0x20000000 (0000ms, 0791ms total)
T3F78 001:674 JLINK_ClrBPEx(BPHandle = 0x00000001)  returns 0x00 (0000ms, 0791ms total)
T3F78 001:674 JLINK_ReadReg(R0)  returns 0x00000000 (0000ms, 0791ms total)
T3F78 001:676 JLINK_WriteReg(R0, 0x08000000)  returns 0x00 (0000ms, 0791ms total)
T3F78 001:676 JLINK_WriteReg(R1, 0x00004000)  returns 0x00 (0000ms, 0791ms total)
T3F78 001:676 JLINK_WriteReg(R2, 0x000000FF)  returns 0x00 (0000ms, 0791ms total)
T3F78 001:677 JLINK_WriteReg(R3, 0x00000000)  returns 0x00 (0000ms, 0792ms total)
T3F78 001:677 JLINK_WriteReg(R4, 0x00000000)  returns 0x00 (0000ms, 0792ms total)
T3F78 001:677 JLINK_WriteReg(R5, 0x00000000)  returns 0x00 (0000ms, 0792ms total)
T3F78 001:677 JLINK_WriteReg(R6, 0x00000000)  returns 0x00 (0000ms, 0792ms total)
T3F78 001:677 JLINK_WriteReg(R7, 0x00000000)  returns 0x00 (0001ms, 0793ms total)
T3F78 001:678 JLINK_WriteReg(R8, 0x00000000)  returns 0x00 (0000ms, 0793ms total)
T3F78 001:678 JLINK_WriteReg(R9, 0x20000194)  returns 0x00 (0000ms, 0793ms total)
T3F78 001:678 JLINK_WriteReg(R10, 0x00000000)  returns 0x00 (0000ms, 0793ms total)
T3F78 001:678 JLINK_WriteReg(R11, 0x00000000)  returns 0x00 (0000ms, 0793ms total)
T3F78 001:679 JLINK_WriteReg(R12, 0x00000000)  returns 0x00 (0000ms, 0794ms total)
T3F78 001:679 JLINK_WriteReg(R13 (SP), 0x20001000)  returns 0x00 (0000ms, 0794ms total)
T3F78 001:679 JLINK_WriteReg(R14, 0x20000001)  returns 0x00 (0000ms, 0794ms total)
T3F78 001:679 JLINK_WriteReg(R15 (PC), 0x20000020)  returns 0x00 (0000ms, 0794ms total)
T3F78 001:679 JLINK_WriteReg(XPSR, 0x01000000)  returns 0x00 (0001ms, 0795ms total)
T3F78 001:680 JLINK_WriteReg(MSP, 0x20001000)  returns 0x00 (0000ms, 0795ms total)
T3F78 001:680 JLINK_WriteReg(PSP, 0x20001000)  returns 0x00 (0000ms, 0795ms total)
T3F78 001:680 JLINK_WriteReg(CFBP, 0x00000000)  returns 0x00 (0000ms, 0795ms total)
T3F78 001:680 JLINK_SetBPEx(Addr = 0x20000000, Type = 0xFFFFFFF2)  returns 0x00000002 (0000ms, 0795ms total)
T3F78 001:681 JLINK_Go() -- CPU_ReadMem(4 bytes @ 0xE0001000) (0003ms, 0799ms total)
T3F78 001:684 JLINK_IsHalted() -- CPU_ReadMem(2 bytes @ 0x20000000)  returns TRUE (0006ms, 0805ms total)
T3F78 001:690 JLINK_ReadReg(R15 (PC))  returns 0x20000000 (0000ms, 0799ms total)
T3F78 001:690 JLINK_ClrBPEx(BPHandle = 0x00000002)  returns 0x00 (0000ms, 0799ms total)
T3F78 001:690 JLINK_ReadReg(R0)  returns 0x00000001 (0001ms, 0800ms total)
T3F78 001:691 JLINK_WriteReg(R0, 0x08000000)  returns 0x00 (0000ms, 0800ms total)
T3F78 001:691 JLINK_WriteReg(R1, 0x00004000)  returns 0x00 (0000ms, 0800ms total)
T3F78 001:691 JLINK_WriteReg(R2, 0x000000FF)  returns 0x00 (0000ms, 0800ms total)
T3F78 001:691 JLINK_WriteReg(R3, 0x00000000)  returns 0x00 (0000ms, 0800ms total)
T3F78 001:691 JLINK_WriteReg(R4, 0x00000000)  returns 0x00 (0001ms, 0801ms total)
T3F78 001:692 JLINK_WriteReg(R5, 0x00000000)  returns 0x00 (0000ms, 0801ms total)
T3F78 001:692 JLINK_WriteReg(R6, 0x00000000)  returns 0x00 (0000ms, 0801ms total)
T3F78 001:692 JLINK_WriteReg(R7, 0x00000000)  returns 0x00 (0000ms, 0801ms total)
T3F78 001:692 JLINK_WriteReg(R8, 0x00000000)  returns 0x00 (0000ms, 0801ms total)
T3F78 001:692 JLINK_WriteReg(R9, 0x20000194)  returns 0x00 (0000ms, 0801ms total)
T3F78 001:693 JLINK_WriteReg(R10, 0x00000000)  returns 0x00 (0000ms, 0802ms total)
T3F78 001:693 JLINK_WriteReg(R11, 0x00000000)  returns 0x00 (0000ms, 0802ms total)
T3F78 001:693 JLINK_WriteReg(R12, 0x00000000)  returns 0x00 (0000ms, 0802ms total)
T3F78 001:693 JLINK_WriteReg(R13 (SP), 0x20001000)  returns 0x00 (0000ms, 0802ms total)
T3F78 001:693 JLINK_WriteReg(R14, 0x20000001)  returns 0x00 (0000ms, 0802ms total)
T3F78 001:694 JLINK_WriteReg(R15 (PC), 0x200000D4)  returns 0x00 (0000ms, 0803ms total)
T3F78 001:694 JLINK_WriteReg(XPSR, 0x01000000)  returns 0x00 (0000ms, 0803ms total)
T3F78 001:694 JLINK_WriteReg(MSP, 0x20001000)  returns 0x00 (0000ms, 0803ms total)
T3F78 001:694 JLINK_WriteReg(PSP, 0x20001000)  returns 0x00 (0000ms, 0803ms total)
T3F78 001:694 JLINK_WriteReg(CFBP, 0x00000000)  returns 0x00 (0000ms, 0803ms total)
T3F78 001:695 JLINK_SetBPEx(Addr = 0x20000000, Type = 0xFFFFFFF2)  returns 0x00000003 (0000ms, 0804ms total)
T3F78 001:695 JLINK_Go() -- CPU_ReadMem(4 bytes @ 0xE0001000) (0003ms, 0807ms total)
T3F78 001:698 JLINK_IsHalted()  returns FALSE (0001ms, 0808ms total)
T3F78 001:835 JLINK_IsHalted()  returns FALSE (0001ms, 0808ms total)
T3F78 001:838 JLINK_IsHalted()  returns FALSE (0001ms, 0808ms total)
T3F78 001:842 JLINK_IsHalted()  returns FALSE (0001ms, 0808ms total)
T3F78 001:845 JLINK_IsHalted()  returns FALSE (0001ms, 0808ms total)
T3F78 001:848 JLINK_IsHalted()  returns FALSE (0001ms, 0808ms total)
T3F78 001:851 JLINK_IsHalted()  returns FALSE (0001ms, 0808ms total)
T3F78 001:854 JLINK_IsHalted()  returns FALSE (0001ms, 0808ms total)
T3F78 001:857 JLINK_IsHalted()  returns FALSE (0001ms, 0808ms total)
T3F78 001:862 JLINK_IsHalted()  returns FALSE (0001ms, 0808ms total)
T3F78 001:865 JLINK_IsHalted()  returns FALSE (0001ms, 0808ms total)
T3F78 001:868 JLINK_IsHalted()  returns FALSE (0001ms, 0808ms total)
T3F78 001:871 JLINK_IsHalted()  returns FALSE (0001ms, 0808ms total)
T3F78 001:874 JLINK_IsHalted()  returns FALSE (0001ms, 0808ms total)
T3F78 001:877 JLINK_IsHalted()  returns FALSE (0001ms, 0808ms total)
T3F78 001:880 JLINK_IsHalted()  returns FALSE (0001ms, 0808ms total)
T3F78 001:883 JLINK_IsHalted()  returns FALSE (0000ms, 0807ms total)
T3F78 001:886 JLINK_IsHalted()  returns FALSE (0001ms, 0808ms total)
T3F78 001:897 JLINK_IsHalted()  returns FALSE (0000ms, 0807ms total)
T3F78 001:900 JLINK_IsHalted()  returns FALSE (0001ms, 0808ms total)
T3F78 001:903 JLINK_IsHalted()  returns FALSE (0001ms, 0808ms total)
T3F78 001:906 JLINK_IsHalted()  returns FALSE (0001ms, 0808ms total)
T3F78 001:909 JLINK_IsHalted()  returns FALSE (0001ms, 0808ms total)
T3F78 001:912 JLINK_IsHalted()  returns FALSE (0001ms, 0808ms total)
T3F78 001:915 JLINK_IsHalted()  returns FALSE (0001ms, 0808ms total)
T3F78 001:918 JLINK_IsHalted()  returns FALSE (0001ms, 0808ms total)
T3F78 001:921 JLINK_IsHalted()  returns FALSE (0001ms, 0808ms total)
T3F78 001:924 JLINK_IsHalted()  returns FALSE (0001ms, 0808ms total)
T3F78 001:927 JLINK_IsHalted()  returns FALSE (0001ms, 0808ms total)
T3F78 001:930 JLINK_IsHalted()  returns FALSE (0001ms, 0808ms total)
T3F78 001:933 JLINK_IsHalted()  returns FALSE (0001ms, 0808ms total)
T3F78 001:936 JLINK_IsHalted()  returns FALSE (0000ms, 0807ms total)
T3F78 001:938 JLINK_IsHalted()  returns FALSE (0000ms, 0807ms total)
T3F78 001:940 JLINK_IsHalted()  returns FALSE (0001ms, 0808ms total)
T3F78 001:943 JLINK_IsHalted()  returns FALSE (0001ms, 0808ms total)
T3F78 001:946 JLINK_IsHalted()  returns FALSE (0001ms, 0808ms total)
T3F78 001:949 JLINK_IsHalted()  returns FALSE (0001ms, 0808ms total)
T3F78 001:952 JLINK_IsHalted()  returns FALSE (0001ms, 0808ms total)
T3F78 001:955 JLINK_IsHalted()  returns FALSE (0001ms, 0808ms total)
T3F78 001:958 JLINK_IsHalted()  returns FALSE (0001ms, 0809ms total)
T3F78 001:961 JLINK_IsHalted()  returns FALSE (0001ms, 0809ms total)
T3F78 001:964 JLINK_IsHalted()  returns FALSE (0001ms, 0809ms total)
T3F78 001:967 JLINK_IsHalted()  returns FALSE (0001ms, 0809ms total)
T3F78 001:970 JLINK_IsHalted()  returns FALSE (0001ms, 0809ms total)
T3F78 001:973 JLINK_IsHalted()  returns FALSE (0001ms, 0809ms total)
T3F78 001:976 JLINK_IsHalted()  returns FALSE (0001ms, 0809ms total)
T3F78 001:979 JLINK_IsHalted()  returns FALSE (0001ms, 0809ms total)
T3F78 001:982 JLINK_IsHalted()  returns FALSE (0001ms, 0809ms total)
T3F78 001:985 JLINK_IsHalted()  returns FALSE (0000ms, 0808ms total)
T3F78 001:987 JLINK_IsHalted()  returns FALSE (0001ms, 0809ms total)
T3F78 001:990 JLINK_IsHalted()  returns FALSE (0001ms, 0809ms total)
T3F78 001:993 JLINK_IsHalted()  returns FALSE (0001ms, 0809ms total)
T3F78 001:996 JLINK_IsHalted()  returns FALSE (0001ms, 0809ms total)
T3F78 002:007 JLINK_IsHalted()  returns FALSE (0001ms, 0809ms total)
T3F78 002:010 JLINK_IsHalted()  returns FALSE (0001ms, 0809ms total)
T3F78 002:013 JLINK_IsHalted()  returns FALSE (0001ms, 0809ms total)
T3F78 002:016 JLINK_IsHalted()  returns FALSE (0001ms, 0809ms total)
T3F78 002:019 JLINK_IsHalted()  returns FALSE (0001ms, 0809ms total)
T3F78 002:022 JLINK_IsHalted()  returns FALSE (0000ms, 0808ms total)
T3F78 002:025 JLINK_IsHalted()  returns FALSE (0001ms, 0809ms total)
T3F78 002:028 JLINK_IsHalted()  returns FALSE (0001ms, 0809ms total)
T3F78 002:031 JLINK_IsHalted()  returns FALSE (0001ms, 0809ms total)
T3F78 002:034 JLINK_IsHalted()  returns FALSE (0001ms, 0809ms total)
T3F78 002:037 JLINK_IsHalted()  returns FALSE (0001ms, 0809ms total)
T3F78 002:040 JLINK_IsHalted()  returns FALSE (0000ms, 0808ms total)
T3F78 002:043 JLINK_IsHalted()  returns FALSE (0001ms, 0809ms total)
T3F78 002:046 JLINK_IsHalted()  returns FALSE (0001ms, 0809ms total)
T3F78 002:049 JLINK_IsHalted() -- CPU_ReadMem(2 bytes @ 0x20000000)  returns TRUE (0006ms, 0814ms total)
T3F78 002:055 JLINK_ReadReg(R15 (PC))  returns 0x20000000 (0000ms, 0808ms total)
T3F78 002:055 JLINK_ClrBPEx(BPHandle = 0x00000003)  returns 0x00 (0000ms, 0808ms total)
T3F78 002:055 JLINK_ReadReg(R0)  returns 0x00000000 (0001ms, 0809ms total)
T3F78 002:064 JLINK_WriteReg(R0, 0x08004000)  returns 0x00 (0000ms, 0809ms total)
T3F78 002:064 JLINK_WriteReg(R1, 0x00004000)  returns 0x00 (0000ms, 0809ms total)
T3F78 002:065 JLINK_WriteReg(R2, 0x000000FF)  returns 0x00 (0000ms, 0810ms total)
T3F78 002:065 JLINK_WriteReg(R3, 0x00000000)  returns 0x00 (0000ms, 0810ms total)
T3F78 002:065 JLINK_WriteReg(R4, 0x00000000)  returns 0x00 (0000ms, 0810ms total)
T3F78 002:066 JLINK_WriteReg(R5, 0x00000000)  returns 0x00 (0000ms, 0811ms total)
T3F78 002:066 JLINK_WriteReg(R6, 0x00000000)  returns 0x00 (0000ms, 0811ms total)
T3F78 002:066 JLINK_WriteReg(R7, 0x00000000)  returns 0x00 (0000ms, 0811ms total)
T3F78 002:066 JLINK_WriteReg(R8, 0x00000000)  returns 0x00 (0001ms, 0812ms total)
T3F78 002:067 JLINK_WriteReg(R9, 0x20000194)  returns 0x00 (0000ms, 0812ms total)
T3F78 002:067 JLINK_WriteReg(R10, 0x00000000)  returns 0x00 (0000ms, 0812ms total)
T3F78 002:067 JLINK_WriteReg(R11, 0x00000000)  returns 0x00 (0001ms, 0813ms total)
T3F78 002:068 JLINK_WriteReg(R12, 0x00000000)  returns 0x00 (0000ms, 0813ms total)
T3F78 002:068 JLINK_WriteReg(R13 (SP), 0x20001000)  returns 0x00 (0000ms, 0813ms total)
T3F78 002:068 JLINK_WriteReg(R14, 0x20000001)  returns 0x00 (0001ms, 0814ms total)
T3F78 002:069 JLINK_WriteReg(R15 (PC), 0x20000020)  returns 0x00 (0000ms, 0814ms total)
T3F78 002:069 JLINK_WriteReg(XPSR, 0x01000000)  returns 0x00 (0001ms, 0815ms total)
T3F78 002:070 JLINK_WriteReg(MSP, 0x20001000)  returns 0x00 (0000ms, 0815ms total)
T3F78 002:070 JLINK_WriteReg(PSP, 0x20001000)  returns 0x00 (0000ms, 0815ms total)
T3F78 002:070 JLINK_WriteReg(CFBP, 0x00000000)  returns 0x00 (0000ms, 0815ms total)
T3F78 002:070 JLINK_SetBPEx(Addr = 0x20000000, Type = 0xFFFFFFF2)  returns 0x00000004 (0001ms, 0816ms total)
T3F78 002:071 JLINK_Go() -- CPU_ReadMem(4 bytes @ 0xE0001000) (0004ms, 0820ms total)
T3F78 002:075 JLINK_IsHalted() -- CPU_ReadMem(2 bytes @ 0x20000000)  returns TRUE (0006ms, 0826ms total)
T3F78 002:081 JLINK_ReadReg(R15 (PC))  returns 0x20000000 (0000ms, 0820ms total)
T3F78 002:081 JLINK_ClrBPEx(BPHandle = 0x00000004)  returns 0x00 (0001ms, 0821ms total)
T3F78 002:082 JLINK_ReadReg(R0)  returns 0x00000001 (0000ms, 0821ms total)
T3F78 002:082 JLINK_WriteReg(R0, 0x08004000)  returns 0x00 (0000ms, 0821ms total)
T3F78 002:082 JLINK_WriteReg(R1, 0x00004000)  returns 0x00 (0001ms, 0822ms total)
T3F78 002:083 JLINK_WriteReg(R2, 0x000000FF)  returns 0x00 (0000ms, 0822ms total)
T3F78 002:083 JLINK_WriteReg(R3, 0x00000000)  returns 0x00 (0000ms, 0822ms total)
T3F78 002:083 JLINK_WriteReg(R4, 0x00000000)  returns 0x00 (0000ms, 0822ms total)
T3F78 002:084 JLINK_WriteReg(R5, 0x00000000)  returns 0x00 (0000ms, 0823ms total)
T3F78 002:084 JLINK_WriteReg(R6, 0x00000000)  returns 0x00 (0000ms, 0823ms total)
T3F78 002:084 JLINK_WriteReg(R7, 0x00000000)  returns 0x00 (0000ms, 0823ms total)
T3F78 002:085 JLINK_WriteReg(R8, 0x00000000)  returns 0x00 (0000ms, 0824ms total)
T3F78 002:085 JLINK_WriteReg(R9, 0x20000194)  returns 0x00 (0000ms, 0824ms total)
T3F78 002:085 JLINK_WriteReg(R10, 0x00000000)  returns 0x00 (0001ms, 0825ms total)
T3F78 002:086 JLINK_WriteReg(R11, 0x00000000)  returns 0x00 (0000ms, 0825ms total)
T3F78 002:086 JLINK_WriteReg(R12, 0x00000000)  returns 0x00 (0000ms, 0825ms total)
T3F78 002:086 JLINK_WriteReg(R13 (SP), 0x20001000)  returns 0x00 (0001ms, 0826ms total)
T3F78 002:087 JLINK_WriteReg(R14, 0x20000001)  returns 0x00 (0000ms, 0826ms total)
T3F78 002:087 JLINK_WriteReg(R15 (PC), 0x200000D4)  returns 0x00 (0001ms, 0827ms total)
T3F78 002:088 JLINK_WriteReg(XPSR, 0x01000000)  returns 0x00 (0000ms, 0827ms total)
T3F78 002:088 JLINK_WriteReg(MSP, 0x20001000)  returns 0x00 (0000ms, 0827ms total)
T3F78 002:088 JLINK_WriteReg(PSP, 0x20001000)  returns 0x00 (0000ms, 0827ms total)
T3F78 002:089 JLINK_WriteReg(CFBP, 0x00000000)  returns 0x00 (0000ms, 0828ms total)
T3F78 002:089 JLINK_SetBPEx(Addr = 0x20000000, Type = 0xFFFFFFF2)  returns 0x00000005 (0000ms, 0828ms total)
T3F78 002:089 JLINK_Go() -- CPU_ReadMem(4 bytes @ 0xE0001000) (0003ms, 0831ms total)
T3F78 002:092 JLINK_IsHalted()  returns FALSE (0001ms, 0832ms total)
T3F78 002:095 JLINK_IsHalted()  returns FALSE (0001ms, 0832ms total)
T3F78 002:098 JLINK_IsHalted()  returns FALSE (0001ms, 0832ms total)
T3F78 002:101 JLINK_IsHalted()  returns FALSE (0001ms, 0832ms total)
T3F78 002:104 JLINK_IsHalted()  returns FALSE (0001ms, 0832ms total)
T3F78 002:111 JLINK_IsHalted()  returns FALSE (0001ms, 0832ms total)
T3F78 002:114 JLINK_IsHalted()  returns FALSE (0001ms, 0832ms total)
T3F78 002:117 JLINK_IsHalted()  returns FALSE (0001ms, 0832ms total)
T3F78 002:120 JLINK_IsHalted()  returns FALSE (0001ms, 0832ms total)
T3F78 002:123 JLINK_IsHalted()  returns FALSE (0001ms, 0832ms total)
T3F78 002:126 JLINK_IsHalted()  returns FALSE (0001ms, 0832ms total)
T3F78 002:129 JLINK_IsHalted()  returns FALSE (0000ms, 0831ms total)
T3F78 002:131 JLINK_IsHalted()  returns FALSE (0001ms, 0832ms total)
T3F78 002:134 JLINK_IsHalted()  returns FALSE (0001ms, 0832ms total)
T3F78 002:137 JLINK_IsHalted()  returns FALSE (0001ms, 0832ms total)
T3F78 002:140 JLINK_IsHalted()  returns FALSE (0001ms, 0832ms total)
T3F78 002:143 JLINK_IsHalted()  returns FALSE (0001ms, 0832ms total)
T3F78 002:146 JLINK_IsHalted()  returns FALSE (0001ms, 0832ms total)
T3F78 002:149 JLINK_IsHalted()  returns FALSE (0001ms, 0832ms total)
T3F78 002:152 JLINK_IsHalted()  returns FALSE (0001ms, 0832ms total)
T3F78 002:155 JLINK_IsHalted()  returns FALSE (0001ms, 0832ms total)
T3F78 002:158 JLINK_IsHalted()  returns FALSE (0001ms, 0832ms total)
T3F78 002:161 JLINK_IsHalted()  returns FALSE (0001ms, 0832ms total)
T3F78 002:164 JLINK_IsHalted()  returns FALSE (0001ms, 0833ms total)
T3F78 002:167 JLINK_IsHalted()  returns FALSE (0001ms, 0833ms total)
T3F78 002:170 JLINK_IsHalted()  returns FALSE (0001ms, 0833ms total)
T3F78 002:177 JLINK_IsHalted()  returns FALSE (0001ms, 0833ms total)
T3F78 002:180 JLINK_IsHalted()  returns FALSE (0001ms, 0833ms total)
T3F78 002:183 JLINK_IsHalted()  returns FALSE (0001ms, 0833ms total)
T3F78 002:191 JLINK_IsHalted()  returns FALSE (0001ms, 0833ms total)
T3F78 002:195 JLINK_IsHalted()  returns FALSE (0001ms, 0833ms total)
T3F78 002:198 JLINK_IsHalted()  returns FALSE (0001ms, 0833ms total)
T3F78 002:201 JLINK_IsHalted()  returns FALSE (0001ms, 0833ms total)
T3F78 002:204 JLINK_IsHalted()  returns FALSE (0001ms, 0833ms total)
T3F78 002:207 JLINK_IsHalted()  returns FALSE (0001ms, 0833ms total)
T3F78 002:213 JLINK_IsHalted()  returns FALSE (0001ms, 0833ms total)
T3F78 002:216 JLINK_IsHalted()  returns FALSE (0001ms, 0833ms total)
T3F78 002:219 JLINK_IsHalted()  returns FALSE (0001ms, 0833ms total)
T3F78 002:222 JLINK_IsHalted()  returns FALSE (0001ms, 0833ms total)
T3F78 002:230 JLINK_IsHalted()  returns FALSE (0001ms, 0833ms total)
T3F78 002:233 JLINK_IsHalted()  returns FALSE (0001ms, 0833ms total)
T3F78 002:236 JLINK_IsHalted()  returns FALSE (0001ms, 0833ms total)
T3F78 002:239 JLINK_IsHalted()  returns FALSE (0001ms, 0833ms total)
T3F78 002:242 JLINK_IsHalted()  returns FALSE (0000ms, 0832ms total)
T3F78 002:244 JLINK_IsHalted()  returns FALSE (0001ms, 0833ms total)
T3F78 002:247 JLINK_IsHalted()  returns FALSE (0001ms, 0833ms total)
T3F78 002:255 JLINK_IsHalted()  returns FALSE (0001ms, 0833ms total)
T3F78 002:258 JLINK_IsHalted()  returns FALSE (0001ms, 0833ms total)
T3F78 002:261 JLINK_IsHalted()  returns FALSE (0001ms, 0833ms total)
T3F78 002:264 JLINK_IsHalted()  returns FALSE (0001ms, 0833ms total)
T3F78 002:267 JLINK_IsHalted()  returns FALSE (0001ms, 0833ms total)
T3F78 002:270 JLINK_IsHalted()  returns FALSE (0000ms, 0832ms total)
T3F78 002:273 JLINK_IsHalted()  returns FALSE (0001ms, 0833ms total)
T3F78 002:276 JLINK_IsHalted()  returns FALSE (0001ms, 0833ms total)
T3F78 002:279 JLINK_IsHalted()  returns FALSE (0001ms, 0833ms total)
T3F78 002:282 JLINK_IsHalted()  returns FALSE (0001ms, 0833ms total)
T3F78 002:285 JLINK_IsHalted()  returns FALSE (0001ms, 0833ms total)
T3F78 002:288 JLINK_IsHalted()  returns FALSE (0001ms, 0833ms total)
T3F78 002:291 JLINK_IsHalted()  returns FALSE (0001ms, 0834ms total)
T3F78 002:294 JLINK_IsHalted()  returns FALSE (0000ms, 0833ms total)
T3F78 002:297 JLINK_IsHalted()  returns FALSE (0001ms, 0834ms total)
T3F78 002:300 JLINK_IsHalted()  returns FALSE (0001ms, 0834ms total)
T3F78 002:303 JLINK_IsHalted()  returns FALSE (0001ms, 0834ms total)
T3F78 002:306 JLINK_IsHalted()  returns FALSE (0001ms, 0834ms total)
T3F78 002:309 JLINK_IsHalted()  returns FALSE (0001ms, 0834ms total)
T3F78 002:312 JLINK_IsHalted()  returns FALSE (0001ms, 0834ms total)
T3F78 002:315 JLINK_IsHalted()  returns FALSE (0001ms, 0834ms total)
T3F78 002:318 JLINK_IsHalted()  returns FALSE (0001ms, 0834ms total)
T3F78 002:321 JLINK_IsHalted()  returns FALSE (0001ms, 0834ms total)
T3F78 002:324 JLINK_IsHalted()  returns FALSE (0001ms, 0834ms total)
T3F78 002:333 JLINK_IsHalted()  returns FALSE (0001ms, 0834ms total)
T3F78 002:336 JLINK_IsHalted()  returns FALSE (0000ms, 0833ms total)
T3F78 002:339 JLINK_IsHalted()  returns FALSE (0001ms, 0834ms total)
T3F78 002:342 JLINK_IsHalted()  returns FALSE (0001ms, 0834ms total)
T3F78 002:345 JLINK_IsHalted()  returns FALSE (0001ms, 0834ms total)
T3F78 002:348 JLINK_IsHalted()  returns FALSE (0001ms, 0834ms total)
T3F78 002:351 JLINK_IsHalted()  returns FALSE (0001ms, 0834ms total)
T3F78 002:354 JLINK_IsHalted()  returns FALSE (0001ms, 0834ms total)
T3F78 002:357 JLINK_IsHalted()  returns FALSE (0001ms, 0834ms total)
T3F78 002:360 JLINK_IsHalted()  returns FALSE (0001ms, 0834ms total)
T3F78 002:363 JLINK_IsHalted()  returns FALSE (0001ms, 0834ms total)
T3F78 002:366 JLINK_IsHalted()  returns FALSE (0001ms, 0834ms total)
T3F78 002:369 JLINK_IsHalted()  returns FALSE (0001ms, 0834ms total)
T3F78 002:372 JLINK_IsHalted()  returns FALSE (0001ms, 0834ms total)
T3F78 002:375 JLINK_IsHalted()  returns FALSE (0001ms, 0834ms total)
T3F78 002:378 JLINK_IsHalted()  returns FALSE (0001ms, 0834ms total)
T3F78 002:381 JLINK_IsHalted()  returns FALSE (0001ms, 0834ms total)
T3F78 002:384 JLINK_IsHalted()  returns FALSE (0001ms, 0834ms total)
T3F78 002:387 JLINK_IsHalted()  returns FALSE (0001ms, 0834ms total)
T3F78 002:390 JLINK_IsHalted()  returns FALSE (0001ms, 0834ms total)
T3F78 002:393 JLINK_IsHalted()  returns FALSE (0001ms, 0834ms total)
T3F78 002:396 JLINK_IsHalted()  returns FALSE (0001ms, 0834ms total)
T3F78 002:399 JLINK_IsHalted()  returns FALSE (0001ms, 0834ms total)
T3F78 002:402 JLINK_IsHalted()  returns FALSE (0001ms, 0834ms total)
T3F78 002:405 JLINK_IsHalted()  returns FALSE (0001ms, 0834ms total)
T3F78 002:408 JLINK_IsHalted()  returns FALSE (0001ms, 0834ms total)
T3F78 002:411 JLINK_IsHalted()  returns FALSE (0001ms, 0834ms total)
T3F78 002:414 JLINK_IsHalted()  returns FALSE (0001ms, 0834ms total)
T3F78 002:417 JLINK_IsHalted()  returns FALSE (0001ms, 0834ms total)
T3F78 002:420 JLINK_IsHalted()  returns FALSE (0001ms, 0835ms total)
T3F78 002:423 JLINK_IsHalted()  returns FALSE (0001ms, 0835ms total)
T3F78 002:426 JLINK_IsHalted()  returns FALSE (0001ms, 0835ms total)
T3F78 002:429 JLINK_IsHalted()  returns FALSE (0001ms, 0835ms total)
T3F78 002:432 JLINK_IsHalted()  returns FALSE (0001ms, 0835ms total)
T3F78 002:441 JLINK_IsHalted()  returns FALSE (0001ms, 0835ms total)
T3F78 002:444 JLINK_IsHalted()  returns FALSE (0001ms, 0835ms total)
T3F78 002:447 JLINK_IsHalted() -- CPU_ReadMem(2 bytes @ 0x20000000)  returns TRUE (0006ms, 0840ms total)
T3F78 002:453 JLINK_ReadReg(R15 (PC))  returns 0x20000000 (0000ms, 0834ms total)
T3F78 002:453 JLINK_ClrBPEx(BPHandle = 0x00000005)  returns 0x00 (0000ms, 0834ms total)
T3F78 002:453 JLINK_ReadReg(R0)  returns 0x00000000 (0001ms, 0835ms total)
T3F78 002:455 JLINK_WriteReg(R0, 0x00000001)  returns 0x00 (0000ms, 0835ms total)
T3F78 002:456 JLINK_WriteReg(R1, 0x00004000)  returns 0x00 (0000ms, 0836ms total)
T3F78 002:456 JLINK_WriteReg(R2, 0x000000FF)  returns 0x00 (0000ms, 0836ms total)
T3F78 002:456 JLINK_WriteReg(R3, 0x00000000)  returns 0x00 (0000ms, 0836ms total)
T3F78 002:456 JLINK_WriteReg(R4, 0x00000000)  returns 0x00 (0001ms, 0837ms total)
T3F78 002:457 JLINK_WriteReg(R5, 0x00000000)  returns 0x00 (0000ms, 0837ms total)
T3F78 002:457 JLINK_WriteReg(R6, 0x00000000)  returns 0x00 (0000ms, 0837ms total)
T3F78 002:457 JLINK_WriteReg(R7, 0x00000000)  returns 0x00 (0001ms, 0838ms total)
T3F78 002:458 JLINK_WriteReg(R8, 0x00000000)  returns 0x00 (0000ms, 0838ms total)
T3F78 002:458 JLINK_WriteReg(R9, 0x20000194)  returns 0x00 (0000ms, 0838ms total)
T3F78 002:458 JLINK_WriteReg(R10, 0x00000000)  returns 0x00 (0001ms, 0839ms total)
T3F78 002:459 JLINK_WriteReg(R11, 0x00000000)  returns 0x00 (0000ms, 0839ms total)
T3F78 002:459 JLINK_WriteReg(R12, 0x00000000)  returns 0x00 (0000ms, 0839ms total)
T3F78 002:459 JLINK_WriteReg(R13 (SP), 0x20001000)  returns 0x00 (0000ms, 0839ms total)
T3F78 002:459 JLINK_WriteReg(R14, 0x20000001)  returns 0x00 (0001ms, 0840ms total)
T3F78 002:460 JLINK_WriteReg(R15 (PC), 0x2000008C)  returns 0x00 (0000ms, 0840ms total)
T3F78 002:460 JLINK_WriteReg(XPSR, 0x01000000)  returns 0x00 (0000ms, 0840ms total)
T3F78 002:460 JLINK_WriteReg(MSP, 0x20001000)  returns 0x00 (0001ms, 0841ms total)
T3F78 002:461 JLINK_WriteReg(PSP, 0x20001000)  returns 0x00 (0000ms, 0841ms total)
T3F78 002:461 JLINK_WriteReg(CFBP, 0x00000000)  returns 0x00 (0000ms, 0841ms total)
T3F78 002:461 JLINK_SetBPEx(Addr = 0x20000000, Type = 0xFFFFFFF2)  returns 0x00000006 (0000ms, 0841ms total)
T3F78 002:461 JLINK_Go() -- CPU_ReadMem(4 bytes @ 0xE0001000) (0005ms, 0846ms total)
T3F78 002:466 JLINK_IsHalted() -- CPU_ReadMem(2 bytes @ 0x20000000)  returns TRUE (0006ms, 0852ms total)
T3F78 002:472 JLINK_ReadReg(R15 (PC))  returns 0x20000000 (0000ms, 0846ms total)
T3F78 002:472 JLINK_ClrBPEx(BPHandle = 0x00000006)  returns 0x00 (0000ms, 0846ms total)
T3F78 002:473 JLINK_ReadReg(R0)  returns 0x00000000 (0000ms, 0847ms total)
T3F78 002:579 JLINK_WriteMem(0x20000000, 0x0198 Bytes, ...) - Data: 00 BE 0A E0 0D 78 2D 06 68 40 08 24 40 00 00 D3 ... -- CPU_WriteMem(408 bytes @ 0x20000000)  returns 0x198 (0006ms, 0853ms total)
T3F78 002:586 JLINK_WriteReg(R0, 0x08000000)  returns 0x00 (0000ms, 0853ms total)
T3F78 002:586 JLINK_WriteReg(R1, 0x00B71B00)  returns 0x00 (0000ms, 0853ms total)
T3F78 002:586 JLINK_WriteReg(R2, 0x00000002)  returns 0x00 (0001ms, 0854ms total)
T3F78 002:587 JLINK_WriteReg(R3, 0x00000000)  returns 0x00 (0000ms, 0854ms total)
T3F78 002:587 JLINK_WriteReg(R4, 0x00000000)  returns 0x00 (0000ms, 0854ms total)
T3F78 002:588 JLINK_WriteReg(R5, 0x00000000)  returns 0x00 (0000ms, 0855ms total)
T3F78 002:588 JLINK_WriteReg(R6, 0x00000000)  returns 0x00 (0000ms, 0855ms total)
T3F78 002:588 JLINK_WriteReg(R7, 0x00000000)  returns 0x00 (0001ms, 0856ms total)
T3F78 002:589 JLINK_WriteReg(R8, 0x00000000)  returns 0x00 (0000ms, 0856ms total)
T3F78 002:590 JLINK_WriteReg(R9, 0x20000194)  returns 0x00 (0000ms, 0857ms total)
T3F78 002:590 JLINK_WriteReg(R10, 0x00000000)  returns 0x00 (0000ms, 0857ms total)
T3F78 002:590 JLINK_WriteReg(R11, 0x00000000)  returns 0x00 (0000ms, 0857ms total)
T3F78 002:590 JLINK_WriteReg(R12, 0x00000000)  returns 0x00 (0001ms, 0858ms total)
T3F78 002:591 JLINK_WriteReg(R13 (SP), 0x20001000)  returns 0x00 (0000ms, 0858ms total)
T3F78 002:591 JLINK_WriteReg(R14, 0x20000001)  returns 0x00 (0000ms, 0858ms total)
T3F78 002:591 JLINK_WriteReg(R15 (PC), 0x2000005E)  returns 0x00 (0000ms, 0858ms total)
T3F78 002:592 JLINK_WriteReg(XPSR, 0x01000000)  returns 0x00 (0000ms, 0858ms total)
T3F78 002:592 JLINK_WriteReg(MSP, 0x20001000)  returns 0x00 (0000ms, 0858ms total)
T3F78 002:592 JLINK_WriteReg(PSP, 0x20001000)  returns 0x00 (0000ms, 0858ms total)
T3F78 002:592 JLINK_WriteReg(CFBP, 0x00000000)  returns 0x00 (0001ms, 0859ms total)
T3F78 002:593 JLINK_SetBPEx(Addr = 0x20000000, Type = 0xFFFFFFF2) -- CPU_ReadMem(2 bytes @ 0x20000000)  returns 0x00000007 (0001ms, 0860ms total)
T3F78 002:594 JLINK_Go() -- CPU_WriteMem(2 bytes @ 0x20000000) -- CPU_ReadMem(4 bytes @ 0xE0001000) (0004ms, 0864ms total)
T3F78 002:598 JLINK_IsHalted() -- CPU_ReadMem(2 bytes @ 0x20000000)  returns TRUE (0006ms, 0870ms total)
T3F78 002:604 JLINK_ReadReg(R15 (PC))  returns 0x20000000 (0001ms, 0865ms total)
T3F78 002:605 JLINK_ClrBPEx(BPHandle = 0x00000007)  returns 0x00 (0000ms, 0865ms total)
T3F78 002:605 JLINK_ReadReg(R0)  returns 0x00000000 (0001ms, 0866ms total)
T3F78 002:608 JLINK_WriteMem(0x20000198, 0x0400 Bytes, ...) - Data: 60 54 00 20 7D 02 00 08 4B 46 00 08 4F 3B 00 08 ... -- CPU_WriteMem(1024 bytes @ 0x20000198)  returns 0x400 (0011ms, 0877ms total)
T3F78 002:619 JLINK_WriteReg(R0, 0x08000000)  returns 0x00 (0000ms, 0877ms total)
T3F78 002:620 JLINK_WriteReg(R1, 0x00000400)  returns 0x00 (0000ms, 0878ms total)
T3F78 002:620 JLINK_WriteReg(R2, 0x20000198)  returns 0x00 (0000ms, 0878ms total)
T3F78 002:620 JLINK_WriteReg(R3, 0x00000000)  returns 0x00 (0001ms, 0879ms total)
T3F78 002:621 JLINK_WriteReg(R4, 0x00000000)  returns 0x00 (0000ms, 0879ms total)
T3F78 002:621 JLINK_WriteReg(R5, 0x00000000)  returns 0x00 (0000ms, 0879ms total)
T3F78 002:621 JLINK_WriteReg(R6, 0x00000000)  returns 0x00 (0000ms, 0879ms total)
T3F78 002:622 JLINK_WriteReg(R7, 0x00000000)  returns 0x00 (0000ms, 0879ms total)
T3F78 002:622 JLINK_WriteReg(R8, 0x00000000)  returns 0x00 (0000ms, 0879ms total)
T3F78 002:622 JLINK_WriteReg(R9, 0x20000194)  returns 0x00 (0000ms, 0879ms total)
T3F78 002:622 JLINK_WriteReg(R10, 0x00000000)  returns 0x00 (0001ms, 0880ms total)
T3F78 002:623 JLINK_WriteReg(R11, 0x00000000)  returns 0x00 (0000ms, 0880ms total)
T3F78 002:623 JLINK_WriteReg(R12, 0x00000000)  returns 0x00 (0000ms, 0880ms total)
T3F78 002:623 JLINK_WriteReg(R13 (SP), 0x20001000)  returns 0x00 (0000ms, 0880ms total)
T3F78 002:624 JLINK_WriteReg(R14, 0x20000001)  returns 0x00 (0000ms, 0881ms total)
T3F78 002:624 JLINK_WriteReg(R15 (PC), 0x20000120)  returns 0x00 (0000ms, 0881ms total)
T3F78 002:624 JLINK_WriteReg(XPSR, 0x01000000)  returns 0x00 (0000ms, 0881ms total)
T3F78 002:624 JLINK_WriteReg(MSP, 0x20001000)  returns 0x00 (0001ms, 0882ms total)
T3F78 002:625 JLINK_WriteReg(PSP, 0x20001000)  returns 0x00 (0000ms, 0882ms total)
T3F78 002:625 JLINK_WriteReg(CFBP, 0x00000000)  returns 0x00 (0000ms, 0882ms total)
T3F78 002:625 JLINK_SetBPEx(Addr = 0x20000000, Type = 0xFFFFFFF2)  returns 0x00000008 (0001ms, 0883ms total)
T3F78 002:626 JLINK_Go() -- CPU_ReadMem(4 bytes @ 0xE0001000) (0003ms, 0886ms total)
T3F78 002:630 JLINK_IsHalted()  returns FALSE (0001ms, 0887ms total)
T3F78 002:640 JLINK_IsHalted() -- CPU_ReadMem(2 bytes @ 0x20000000)  returns TRUE (0006ms, 0892ms total)
T3F78 002:646 JLINK_ReadReg(R15 (PC))  returns 0x20000000 (0000ms, 0886ms total)
T3F78 002:646 JLINK_ClrBPEx(BPHandle = 0x00000008)  returns 0x00 (0000ms, 0886ms total)
T3F78 002:646 JLINK_ReadReg(R0)  returns 0x00000000 (0001ms, 0887ms total)
T3F78 002:649 JLINK_WriteMem(0x20000198, 0x0400 Bytes, ...) - Data: 23 F0 00 40 10 43 47 D0 27 0D C7 F3 0A 00 C3 F3 ... -- CPU_WriteMem(1024 bytes @ 0x20000198)  returns 0x400 (0011ms, 0898ms total)
T3F78 002:660 JLINK_WriteReg(R0, 0x08000400)  returns 0x00 (0000ms, 0898ms total)
T3F78 002:660 JLINK_WriteReg(R1, 0x00000400)  returns 0x00 (0000ms, 0898ms total)
T3F78 002:661 JLINK_WriteReg(R2, 0x20000198)  returns 0x00 (0000ms, 0899ms total)
T3F78 002:661 JLINK_WriteReg(R3, 0x00000000)  returns 0x00 (0000ms, 0899ms total)
T3F78 002:661 JLINK_WriteReg(R4, 0x00000000)  returns 0x00 (0000ms, 0899ms total)
T3F78 002:662 JLINK_WriteReg(R5, 0x00000000)  returns 0x00 (0000ms, 0900ms total)
T3F78 002:662 JLINK_WriteReg(R6, 0x00000000)  returns 0x00 (0000ms, 0900ms total)
T3F78 002:662 JLINK_WriteReg(R7, 0x00000000)  returns 0x00 (0000ms, 0900ms total)
T3F78 002:663 JLINK_WriteReg(R8, 0x00000000)  returns 0x00 (0000ms, 0901ms total)
T3F78 002:663 JLINK_WriteReg(R9, 0x20000194)  returns 0x00 (0000ms, 0901ms total)
T3F78 002:663 JLINK_WriteReg(R10, 0x00000000)  returns 0x00 (0000ms, 0901ms total)
T3F78 002:664 JLINK_WriteReg(R11, 0x00000000)  returns 0x00 (0000ms, 0902ms total)
T3F78 002:664 JLINK_WriteReg(R12, 0x00000000)  returns 0x00 (0000ms, 0902ms total)
T3F78 002:664 JLINK_WriteReg(R13 (SP), 0x20001000)  returns 0x00 (0000ms, 0902ms total)
T3F78 002:664 JLINK_WriteReg(R14, 0x20000001)  returns 0x00 (0001ms, 0903ms total)
T3F78 002:665 JLINK_WriteReg(R15 (PC), 0x20000120)  returns 0x00 (0000ms, 0903ms total)
T3F78 002:665 JLINK_WriteReg(XPSR, 0x01000000)  returns 0x00 (0000ms, 0903ms total)
T3F78 002:665 JLINK_WriteReg(MSP, 0x20001000)  returns 0x00 (0001ms, 0904ms total)
T3F78 002:666 JLINK_WriteReg(PSP, 0x20001000)  returns 0x00 (0000ms, 0904ms total)
T3F78 002:666 JLINK_WriteReg(CFBP, 0x00000000)  returns 0x00 (0000ms, 0904ms total)
T3F78 002:666 JLINK_SetBPEx(Addr = 0x20000000, Type = 0xFFFFFFF2)  returns 0x00000009 (0001ms, 0905ms total)
T3F78 002:667 JLINK_Go() -- CPU_ReadMem(4 bytes @ 0xE0001000) (0003ms, 0908ms total)
T3F78 002:670 JLINK_IsHalted()  returns FALSE (0001ms, 0909ms total)
T3F78 002:678 JLINK_IsHalted() -- CPU_ReadMem(2 bytes @ 0x20000000)  returns TRUE (0006ms, 0914ms total)
T3F78 002:684 JLINK_ReadReg(R15 (PC))  returns 0x20000000 (0000ms, 0908ms total)
T3F78 002:684 JLINK_ClrBPEx(BPHandle = 0x00000009)  returns 0x00 (0000ms, 0908ms total)
T3F78 002:685 JLINK_ReadReg(R0)  returns 0x00000000 (0000ms, 0909ms total)
T3F78 002:688 JLINK_WriteMem(0x20000198, 0x0400 Bytes, ...) - Data: A0 EB 08 00 00 22 FD 0A 44 EA 47 54 0A 30 02 D5 ... -- CPU_WriteMem(1024 bytes @ 0x20000198)  returns 0x400 (0011ms, 0920ms total)
T3F78 002:699 JLINK_WriteReg(R0, 0x08000800)  returns 0x00 (0000ms, 0920ms total)
T3F78 002:700 JLINK_WriteReg(R1, 0x00000400)  returns 0x00 (0000ms, 0921ms total)
T3F78 002:700 JLINK_WriteReg(R2, 0x20000198)  returns 0x00 (0000ms, 0921ms total)
T3F78 002:700 JLINK_WriteReg(R3, 0x00000000)  returns 0x00 (0000ms, 0921ms total)
T3F78 002:700 JLINK_WriteReg(R4, 0x00000000)  returns 0x00 (0001ms, 0922ms total)
T3F78 002:701 JLINK_WriteReg(R5, 0x00000000)  returns 0x00 (0000ms, 0922ms total)
T3F78 002:701 JLINK_WriteReg(R6, 0x00000000)  returns 0x00 (0000ms, 0922ms total)
T3F78 002:701 JLINK_WriteReg(R7, 0x00000000)  returns 0x00 (0001ms, 0923ms total)
T3F78 002:702 JLINK_WriteReg(R8, 0x00000000)  returns 0x00 (0000ms, 0923ms total)
T3F78 002:702 JLINK_WriteReg(R9, 0x20000194)  returns 0x00 (0000ms, 0923ms total)
T3F78 002:702 JLINK_WriteReg(R10, 0x00000000)  returns 0x00 (0001ms, 0924ms total)
T3F78 002:703 JLINK_WriteReg(R11, 0x00000000)  returns 0x00 (0000ms, 0924ms total)
T3F78 002:703 JLINK_WriteReg(R12, 0x00000000)  returns 0x00 (0000ms, 0924ms total)
T3F78 002:703 JLINK_WriteReg(R13 (SP), 0x20001000)  returns 0x00 (0000ms, 0924ms total)
T3F78 002:703 JLINK_WriteReg(R14, 0x20000001)  returns 0x00 (0001ms, 0925ms total)
T3F78 002:704 JLINK_WriteReg(R15 (PC), 0x20000120)  returns 0x00 (0000ms, 0925ms total)
T3F78 002:704 JLINK_WriteReg(XPSR, 0x01000000)  returns 0x00 (0000ms, 0925ms total)
T3F78 002:704 JLINK_WriteReg(MSP, 0x20001000)  returns 0x00 (0000ms, 0925ms total)
T3F78 002:704 JLINK_WriteReg(PSP, 0x20001000)  returns 0x00 (0001ms, 0926ms total)
T3F78 002:705 JLINK_WriteReg(CFBP, 0x00000000)  returns 0x00 (0000ms, 0926ms total)
T3F78 002:705 JLINK_SetBPEx(Addr = 0x20000000, Type = 0xFFFFFFF2)  returns 0x0000000A (0000ms, 0926ms total)
T3F78 002:705 JLINK_Go() -- CPU_ReadMem(4 bytes @ 0xE0001000) (0004ms, 0930ms total)
T3F78 002:709 JLINK_IsHalted()  returns FALSE (0001ms, 0931ms total)
T3F78 002:716 JLINK_IsHalted() -- CPU_ReadMem(2 bytes @ 0x20000000)  returns TRUE (0006ms, 0936ms total)
T3F78 002:722 JLINK_ReadReg(R15 (PC))  returns 0x20000000 (0000ms, 0930ms total)
T3F78 002:722 JLINK_ClrBPEx(BPHandle = 0x0000000A)  returns 0x00 (0001ms, 0931ms total)
T3F78 002:723 JLINK_ReadReg(R0)  returns 0x00000000 (0000ms, 0931ms total)
T3F78 002:725 JLINK_WriteMem(0x20000198, 0x0400 Bytes, ...) - Data: 40 6B 02 49 00 7D 08 70 70 47 00 00 3C 01 00 20 ... -- CPU_WriteMem(1024 bytes @ 0x20000198)  returns 0x400 (0011ms, 0942ms total)
T3F78 002:736 JLINK_WriteReg(R0, 0x08000C00)  returns 0x00 (0000ms, 0942ms total)
T3F78 002:736 JLINK_WriteReg(R1, 0x00000400)  returns 0x00 (0000ms, 0942ms total)
T3F78 002:737 JLINK_WriteReg(R2, 0x20000198)  returns 0x00 (0000ms, 0942ms total)
T3F78 002:737 JLINK_WriteReg(R3, 0x00000000)  returns 0x00 (0000ms, 0942ms total)
T3F78 002:737 JLINK_WriteReg(R4, 0x00000000)  returns 0x00 (0001ms, 0943ms total)
T3F78 002:738 JLINK_WriteReg(R5, 0x00000000)  returns 0x00 (0000ms, 0943ms total)
T3F78 002:738 JLINK_WriteReg(R6, 0x00000000)  returns 0x00 (0000ms, 0943ms total)
T3F78 002:738 JLINK_WriteReg(R7, 0x00000000)  returns 0x00 (0000ms, 0943ms total)
T3F78 002:738 JLINK_WriteReg(R8, 0x00000000)  returns 0x00 (0001ms, 0944ms total)
T3F78 002:739 JLINK_WriteReg(R9, 0x20000194)  returns 0x00 (0000ms, 0944ms total)
T3F78 002:739 JLINK_WriteReg(R10, 0x00000000)  returns 0x00 (0000ms, 0944ms total)
T3F78 002:739 JLINK_WriteReg(R11, 0x00000000)  returns 0x00 (0000ms, 0944ms total)
T3F78 002:739 JLINK_WriteReg(R12, 0x00000000)  returns 0x00 (0001ms, 0945ms total)
T3F78 002:740 JLINK_WriteReg(R13 (SP), 0x20001000)  returns 0x00 (0000ms, 0945ms total)
T3F78 002:740 JLINK_WriteReg(R14, 0x20000001)  returns 0x00 (0000ms, 0945ms total)
T3F78 002:740 JLINK_WriteReg(R15 (PC), 0x20000120)  returns 0x00 (0001ms, 0946ms total)
T3F78 002:741 JLINK_WriteReg(XPSR, 0x01000000)  returns 0x00 (0000ms, 0946ms total)
T3F78 002:741 JLINK_WriteReg(MSP, 0x20001000)  returns 0x00 (0000ms, 0946ms total)
T3F78 002:741 JLINK_WriteReg(PSP, 0x20001000)  returns 0x00 (0000ms, 0946ms total)
T3F78 002:741 JLINK_WriteReg(CFBP, 0x00000000)  returns 0x00 (0001ms, 0947ms total)
T3F78 002:742 JLINK_SetBPEx(Addr = 0x20000000, Type = 0xFFFFFFF2)  returns 0x0000000B (0000ms, 0947ms total)
T3F78 002:742 JLINK_Go() -- CPU_ReadMem(4 bytes @ 0xE0001000) (0004ms, 0951ms total)
T3F78 002:746 JLINK_IsHalted()  returns FALSE (0001ms, 0952ms total)
T3F78 002:760 JLINK_IsHalted() -- CPU_ReadMem(2 bytes @ 0x20000000)  returns TRUE (0006ms, 0957ms total)
T3F78 002:766 JLINK_ReadReg(R15 (PC))  returns 0x20000000 (0001ms, 0952ms total)
T3F78 002:767 JLINK_ClrBPEx(BPHandle = 0x0000000B)  returns 0x00 (0000ms, 0952ms total)
T3F78 002:767 JLINK_ReadReg(R0)  returns 0x00000000 (0000ms, 0952ms total)
T3F78 002:771 JLINK_WriteMem(0x20000198, 0x0400 Bytes, ...) - Data: B8 EE C0 0A 04 F0 2E FD 64 1C 04 2C EC DB 7E 4C ... -- CPU_WriteMem(1024 bytes @ 0x20000198)  returns 0x400 (0012ms, 0964ms total)
T3F78 002:783 JLINK_WriteReg(R0, 0x08001000)  returns 0x00 (0000ms, 0964ms total)
T3F78 002:783 JLINK_WriteReg(R1, 0x00000400)  returns 0x00 (0000ms, 0964ms total)
T3F78 002:783 JLINK_WriteReg(R2, 0x20000198)  returns 0x00 (0000ms, 0964ms total)
T3F78 002:784 JLINK_WriteReg(R3, 0x00000000)  returns 0x00 (0000ms, 0965ms total)
T3F78 002:784 JLINK_WriteReg(R4, 0x00000000)  returns 0x00 (0000ms, 0965ms total)
T3F78 002:784 JLINK_WriteReg(R5, 0x00000000)  returns 0x00 (0000ms, 0965ms total)
T3F78 002:785 JLINK_WriteReg(R6, 0x00000000)  returns 0x00 (0000ms, 0966ms total)
T3F78 002:785 JLINK_WriteReg(R7, 0x00000000)  returns 0x00 (0000ms, 0966ms total)
T3F78 002:785 JLINK_WriteReg(R8, 0x00000000)  returns 0x00 (0000ms, 0966ms total)
T3F78 002:785 JLINK_WriteReg(R9, 0x20000194)  returns 0x00 (0001ms, 0967ms total)
T3F78 002:786 JLINK_WriteReg(R10, 0x00000000)  returns 0x00 (0000ms, 0967ms total)
T3F78 002:786 JLINK_WriteReg(R11, 0x00000000)  returns 0x00 (0000ms, 0967ms total)
T3F78 002:786 JLINK_WriteReg(R12, 0x00000000)  returns 0x00 (0000ms, 0967ms total)
T3F78 002:786 JLINK_WriteReg(R13 (SP), 0x20001000)  returns 0x00 (0001ms, 0968ms total)
T3F78 002:787 JLINK_WriteReg(R14, 0x20000001)  returns 0x00 (0000ms, 0968ms total)
T3F78 002:787 JLINK_WriteReg(R15 (PC), 0x20000120)  returns 0x00 (0000ms, 0968ms total)
T3F78 002:787 JLINK_WriteReg(XPSR, 0x01000000)  returns 0x00 (0001ms, 0969ms total)
T3F78 002:788 JLINK_WriteReg(MSP, 0x20001000)  returns 0x00 (0000ms, 0969ms total)
T3F78 002:788 JLINK_WriteReg(PSP, 0x20001000)  returns 0x00 (0000ms, 0969ms total)
T3F78 002:788 JLINK_WriteReg(CFBP, 0x00000000)  returns 0x00 (0000ms, 0969ms total)
T3F78 002:788 JLINK_SetBPEx(Addr = 0x20000000, Type = 0xFFFFFFF2)  returns 0x0000000C (0001ms, 0970ms total)
T3F78 002:789 JLINK_Go() -- CPU_ReadMem(4 bytes @ 0xE0001000) (0004ms, 0974ms total)
T3F78 002:793 JLINK_IsHalted()  returns FALSE (0001ms, 0975ms total)
T3F78 002:800 JLINK_IsHalted() -- CPU_ReadMem(2 bytes @ 0x20000000)  returns TRUE (0006ms, 0980ms total)
T3F78 002:806 JLINK_ReadReg(R15 (PC))  returns 0x20000000 (0000ms, 0974ms total)
T3F78 002:806 JLINK_ClrBPEx(BPHandle = 0x0000000C)  returns 0x00 (0000ms, 0974ms total)
T3F78 002:806 JLINK_ReadReg(R0)  returns 0x00000000 (0001ms, 0975ms total)
T3F78 002:810 JLINK_WriteMem(0x20000198, 0x0400 Bytes, ...) - Data: 68 46 04 F0 FC FA A8 7C 80 07 09 D5 36 A0 04 F0 ... -- CPU_WriteMem(1024 bytes @ 0x20000198)  returns 0x400 (0011ms, 0986ms total)
T3F78 002:822 JLINK_WriteReg(R0, 0x08001400)  returns 0x00 (0000ms, 0986ms total)
T3F78 002:822 JLINK_WriteReg(R1, 0x00000400)  returns 0x00 (0000ms, 0986ms total)
T3F78 002:822 JLINK_WriteReg(R2, 0x20000198)  returns 0x00 (0000ms, 0986ms total)
T3F78 002:822 JLINK_WriteReg(R3, 0x00000000)  returns 0x00 (0001ms, 0987ms total)
T3F78 002:823 JLINK_WriteReg(R4, 0x00000000)  returns 0x00 (0000ms, 0987ms total)
T3F78 002:823 JLINK_WriteReg(R5, 0x00000000)  returns 0x00 (0000ms, 0987ms total)
T3F78 002:823 JLINK_WriteReg(R6, 0x00000000)  returns 0x00 (0000ms, 0987ms total)
T3F78 002:823 JLINK_WriteReg(R7, 0x00000000)  returns 0x00 (0001ms, 0988ms total)
T3F78 002:824 JLINK_WriteReg(R8, 0x00000000)  returns 0x00 (0000ms, 0988ms total)
